Sample in Buffer,Sample in Window,TRIGGER,example_top/MonopulseEx_Arithmetic1/Arithmetic1/Monopulse_data_vi[7:0],example_top/MonopulseEx_Arithmetic1/Arithmetic1/Cube_data[32:0],example_top/MonopulseEx_Arithmetic1/Arithmetic1/Biquadrate_data[40:0],u_ila_0_Square_data[20:0],example_top/MonopulseEx_Arithmetic1/Arithmetic1/SubtractionMean_data_n[8:0],example_top/MonopulseEx_Arithmetic1/Arithmetic1/SubtractionMean_data2[9:0],example_top/MonopulseEx_Arithmetic1/Monopulse_extraction_1/send_count[15:0],example_top/Fourth_moment[40:0],example_top/Count[15:0],example_top/Monopulse_data1[15:0],u_ila_0_Arithmetic_State[2:0],u_ila_0_Monopulse_data_1[7:0],example_top/Monopulse_num[15:0],example_top/Period_count[5:0],example_top/Behind_area[5:0],Behind_area[15:6],example_top/Write_Fifo_datain[7:0],example_top/Second_moment[23:0],example_top/ddr3read_en2[24:0],example_top/feature_num[31:0],example_top/ddr3read_en1[24:0],example_top/Read_Fifo_rusdw_o[10:0],example_top/Read_Fifo_Out[15:0],example_top/time_cnt[15:0],example_top/Third_moment[32:0],example_top/ii[15:0],example_top/Pulse_point_num[15:0],u_ila_0_WaveState[1:0],u_ila_0_FeatureExtraction_flag,SendIRQ_OBUF,example_top/Read_Fifo_empty,u_ila_0_Read_Fifo_rden,example_top/S_FeatureExtraction_flag_reg1
0,0,0,0,1ffffbb58,0000006f910,0002a4,111100110,26,7,634502446,0,105,3,69,40,5,111011,0000001101,105,80950,0000000,5080,0000000,1184,105,0,5449974,0031,4,0,0,0,0,1,0
1,1,0,0,1ffffbb58,0000006f910,0002a4,111100110,26,7,634502446,0,105,3,69,40,5,111011,0000001101,105,80950,0000000,5080,0000000,1183,105,0,5449974,0031,4,0,0,0,0,1,0
2,2,0,0,1ffffbb58,0000006f910,0002a4,111100110,26,7,634502446,0,105,3,69,40,5,111011,0000001101,105,80950,0000000,5080,0000000,1182,105,0,5449974,0031,4,0,0,0,0,1,0
3,3,0,0,1ffffbb58,0000006f910,0002a4,111100110,26,7,634502446,0,105,3,69,40,5,111011,0000001101,105,80950,0000000,5080,0000000,1181,105,0,5449974,0031,4,0,0,0,0,1,0
4,4,0,0,1ffffbb58,0000006f910,0002a4,111100110,26,7,634502446,0,105,3,69,40,5,111011,0000001101,105,80950,0000000,5080,0000000,1180,105,0,5449974,0031,4,0,0,0,0,1,0
5,5,0,0,1ffffbb58,0000006f910,0002a4,111100110,26,7,634502446,0,105,3,69,40,5,111011,0000001101,105,80950,0000000,5080,0000000,1179,105,0,5449974,0031,4,0,0,0,0,1,0
6,6,0,0,1ffffbb58,0000006f910,0002a4,111100110,26,7,634502446,0,105,3,69,40,5,111011,0000001101,105,80950,0000000,5080,0000000,1178,105,0,5449974,0031,4,0,0,0,0,1,0
7,7,0,0,1ffffbb58,0000006f910,0002a4,111100110,26,7,634502446,0,105,3,69,40,5,111011,0000001101,105,80950,0000000,5080,0000000,1177,105,0,5449974,0031,4,0,0,0,0,1,0
8,8,0,0,1ffffbb58,0000006f910,0002a4,111100110,26,7,634502446,0,105,3,69,40,5,111011,0000001101,105,80950,0000000,5080,0000000,1176,105,0,5449974,0031,4,0,0,0,0,1,0
9,9,0,0,1ffffbb58,0000006f910,0002a4,111100110,26,7,634502446,0,105,3,69,40,5,111011,0000001101,105,80950,0000000,5080,0000000,1175,105,0,5449974,0031,4,0,0,0,0,1,0
10,10,0,0,1ffffbb58,0000006f910,0002a4,111100110,26,7,634502446,0,105,3,69,40,5,111011,0000001101,105,80950,0000000,5080,0000000,1174,105,0,5449974,0031,4,0,0,0,0,1,0
11,11,0,0,1ffffbb58,0000006f910,0002a4,111100110,26,7,634502446,0,105,3,69,40,5,111011,0000001101,105,80950,0000000,5080,0000000,1173,105,0,5449974,0031,4,0,0,0,0,1,0
12,12,0,0,1ffffbb58,0000006f910,0002a4,111100110,26,7,634502446,0,105,3,69,40,5,111011,0000001101,105,80950,0000000,5080,0000000,1172,105,0,5449974,0031,4,0,0,0,0,1,0
13,13,0,0,1ffffbb58,0000006f910,0002a4,111100110,26,7,634502446,0,105,3,69,40,5,111011,0000001101,105,80950,0000000,5080,0000000,1171,105,0,5449974,0031,4,0,0,0,0,1,0
14,14,0,0,1ffffbb58,0000006f910,0002a4,111100110,26,7,634502446,0,105,3,69,40,5,111011,0000001101,105,80950,0000000,5080,0000000,1170,105,0,5449974,0031,4,0,0,0,0,1,0
15,15,0,0,1ffffbb58,0000006f910,0002a4,111100110,26,7,634502446,0,105,3,69,40,5,111011,0000001101,104,80950,0000000,5080,0000000,1169,105,0,5449974,0031,4,0,0,0,0,1,0
16,16,0,0,1ffffbb58,0000006f910,0002a4,111100110,26,7,634502446,0,105,3,69,40,5,111011,0000001101,105,80950,0000000,5080,0000000,1168,105,0,5449974,0031,4,0,0,0,0,1,0
17,17,0,0,1ffffbb58,0000006f910,0002a4,111100110,26,7,634502446,0,105,3,69,40,5,111011,0000001101,105,80950,0000000,5080,0000000,1167,105,0,5449974,0031,4,0,0,0,0,1,0
18,18,0,0,1ffffbb58,0000006f910,0002a4,111100110,26,7,634502446,0,105,3,69,40,5,111011,0000001101,105,80950,0000000,5080,0000000,1166,105,0,5449974,0031,4,0,0,0,0,1,0
19,19,0,0,1ffffbb58,0000006f910,0002a4,111100110,26,7,634502446,0,105,3,69,40,5,111011,0000001101,105,80950,0000000,5080,0000000,1165,105,0,5449974,0031,4,0,0,0,0,1,0
20,20,0,0,1ffffbb58,0000006f910,0002a4,111100110,26,7,634502446,0,105,3,69,40,5,111011,0000001101,104,80950,0000000,5080,0000000,1164,105,0,5449974,0031,4,0,0,0,0,1,0
21,21,0,0,1ffffbb58,0000006f910,0002a4,111100110,26,7,634502446,0,105,3,69,40,5,111011,0000001101,105,80950,0000000,5080,0000000,1163,105,0,5449974,0031,4,0,0,0,0,1,0
22,22,0,0,1ffffbb58,0000006f910,0002a4,111100110,26,7,634502446,0,105,3,69,40,5,111011,0000001101,105,80950,0000000,5080,0000000,1162,105,0,5449974,0031,4,0,0,0,0,1,0
23,23,0,0,1ffffbb58,0000006f910,0002a4,111100110,26,7,634502446,0,105,3,69,40,5,111011,0000001101,105,80950,0000000,5080,0000000,1161,105,0,5449974,0031,4,0,0,0,0,1,0
24,24,0,0,1ffffbb58,0000006f910,0002a4,111100110,26,7,634502446,0,105,3,69,40,5,111011,0000001101,105,80950,0000000,5080,0000000,1160,105,0,5449974,0031,4,0,0,0,0,1,0
25,25,0,0,1ffffbb58,0000006f910,0002a4,111100110,26,7,634502446,0,105,3,69,40,5,111011,0000001101,105,80950,0000000,5080,0000000,1159,105,0,5449974,0031,4,0,0,0,0,1,0
26,26,0,0,1ffffbb58,0000006f910,0002a4,111100110,26,7,634502446,0,105,3,69,40,5,111011,0000001101,105,80950,0000000,5080,0000000,1158,105,0,5449974,0031,4,0,0,0,0,1,0
27,27,0,0,1ffffbb58,0000006f910,0002a4,111100110,26,7,634502446,0,105,3,69,40,5,111011,0000001101,105,80950,0000000,5080,0000000,1157,105,0,5449974,0031,4,0,0,0,0,1,0
28,28,0,0,1ffffbb58,0000006f910,0002a4,111100110,26,7,634502446,0,105,3,69,40,5,111011,0000001101,104,80950,0000000,5080,0000000,1156,105,0,5449974,0031,4,0,0,0,0,1,0
29,29,0,0,1ffffbb58,0000006f910,0002a4,111100110,26,7,634502446,0,105,3,69,40,5,111011,0000001101,105,80950,0000000,5080,0000000,1155,105,0,5449974,0031,4,0,0,0,0,1,0
30,30,0,0,1ffffbb58,0000006f910,0002a4,111100110,26,7,634502446,0,105,3,69,40,5,111011,0000001101,105,80950,0000000,5080,0000000,1154,105,0,5449974,0031,4,0,0,0,0,1,0
31,31,0,0,1ffffbb58,0000006f910,0002a4,111100110,26,7,634502446,0,105,3,69,40,5,111011,0000001101,104,80950,0000000,5080,0000000,1153,105,0,5449974,0031,4,0,0,0,0,1,0
32,32,0,0,1ffffbb58,0000006f910,0002a4,111100110,26,7,634502446,0,105,3,69,40,5,111011,0000001101,105,80950,0000000,5080,0000000,1152,105,0,5449974,0031,4,0,0,0,0,1,0
33,33,0,0,1ffffbb58,0000006f910,0002a4,111100110,26,7,634502446,0,105,3,69,40,5,111011,0000001101,105,80950,0000000,5080,0000000,1151,105,0,5449974,0031,4,0,0,0,0,1,0
34,34,0,0,1ffffbb58,0000006f910,0002a4,111100110,26,7,634502446,0,105,3,69,40,5,111011,0000001101,105,80950,0000000,5080,0000000,1150,105,0,5449974,0031,4,0,0,0,0,1,0
35,35,0,0,1ffffbb58,0000006f910,0002a4,111100110,26,7,634502446,0,105,3,69,40,5,111011,0000001101,105,80950,0000000,5080,0000000,1149,105,0,5449974,0031,4,0,0,0,0,1,0
36,36,0,0,1ffffbb58,0000006f910,0002a4,111100110,26,7,634502446,0,105,3,69,40,5,111011,0000001101,105,80950,0000000,5080,0000000,1148,105,0,5449974,0031,4,0,0,0,0,1,0
37,37,0,0,1ffffbb58,0000006f910,0002a4,111100110,26,7,634502446,0,105,3,69,40,5,111011,0000001101,105,80950,0000000,5080,0000000,1147,105,0,5449974,0031,4,0,0,0,0,1,0
38,38,0,0,1ffffbb58,0000006f910,0002a4,111100110,26,7,634502446,0,105,3,69,40,5,111011,0000001101,105,80950,0000000,5080,0000000,1146,105,0,5449974,0031,4,0,0,0,0,1,0
39,39,0,0,1ffffbb58,0000006f910,0002a4,111100110,26,7,634502446,0,105,3,69,40,5,111011,0000001101,105,80950,0000000,5080,0000000,1145,105,0,5449974,0031,4,0,0,0,0,1,0
40,40,0,0,1ffffbb58,0000006f910,0002a4,111100110,26,7,634502446,0,105,3,69,40,5,111011,0000001101,105,80950,0000000,5080,0000000,1144,105,0,5449974,0031,4,0,0,0,0,1,0
41,41,0,0,1ffffbb58,0000006f910,0002a4,111100110,26,7,634502446,0,105,3,69,40,5,111011,0000001101,105,80950,0000000,5080,0000000,1143,105,0,5449974,0031,4,0,0,0,0,1,0
42,42,0,0,1ffffbb58,0000006f910,0002a4,111100110,26,7,634502446,0,105,3,69,40,5,111011,0000001101,105,80950,0000000,5080,0000000,1142,105,0,5449974,0031,4,0,0,0,0,1,0
43,43,0,0,1ffffbb58,0000006f910,0002a4,111100110,26,7,634502446,0,105,3,69,40,5,111011,0000001101,105,80950,0000000,5080,0000000,1141,105,0,5449974,0031,4,0,0,0,0,1,0
44,44,0,0,1ffffbb58,0000006f910,0002a4,111100110,26,7,634502446,0,105,3,69,40,5,111011,0000001101,105,80950,0000000,5080,0000000,1140,105,0,5449974,0031,4,0,0,0,0,1,0
45,45,0,0,1ffffbb58,0000006f910,0002a4,111100110,26,7,634502446,0,105,3,69,40,5,111011,0000001101,105,80950,0000000,5080,0000000,1139,105,0,5449974,0031,4,0,0,0,0,1,0
46,46,0,0,1ffffbb58,0000006f910,0002a4,111100110,26,7,634502446,0,105,3,69,40,5,111011,0000001101,105,80950,0000000,5080,0000000,1138,105,0,5449974,0031,4,0,0,0,0,1,0
47,47,0,0,1ffffbb58,0000006f910,0002a4,111100110,26,7,634502446,0,105,3,69,40,5,111011,0000001101,105,80950,0000000,5080,0000000,1137,105,0,5449974,0031,4,0,0,0,0,1,0
48,48,0,0,1ffffbb58,0000006f910,0002a4,111100110,26,7,634502446,0,105,3,69,40,5,111011,0000001101,105,80950,0000000,5080,0000000,1136,105,0,5449974,0031,4,0,0,0,0,1,0
49,49,0,0,1ffffbb58,0000006f910,0002a4,111100110,26,7,634502446,0,105,3,69,40,5,111011,0000001101,105,80950,0000000,5080,0000000,1135,105,0,5449974,0031,4,0,0,0,0,1,0
50,50,0,0,1ffffbb58,0000006f910,0002a4,111100110,26,7,634502446,0,105,3,69,40,5,111011,0000001101,105,80950,0000000,5080,0000000,1134,105,0,5449974,0031,4,0,0,0,0,1,0
51,51,0,0,1ffffbb58,0000006f910,0002a4,111100110,26,7,634502446,0,105,3,69,40,5,111011,0000001101,105,80950,0000000,5080,0000000,1133,105,0,5449974,0031,4,0,0,0,0,1,0
52,52,0,0,1ffffbb58,0000006f910,0002a4,111100110,26,7,634502446,0,105,3,69,40,5,111011,0000001101,105,80950,0000000,5080,0000000,1132,105,0,5449974,0031,4,0,0,0,0,1,0
53,53,0,0,1ffffbb58,0000006f910,0002a4,111100110,26,7,634502446,0,105,3,69,40,5,111011,0000001101,105,80950,0000000,5080,0000000,1131,105,0,5449974,0031,4,0,0,0,0,1,0
54,54,0,0,1ffffbb58,0000006f910,0002a4,111100110,26,7,634502446,0,105,3,69,40,5,111011,0000001101,105,80950,0000000,5080,0000000,1130,105,0,5449974,0031,4,0,0,0,0,1,0
55,55,0,0,1ffffbb58,0000006f910,0002a4,111100110,26,7,634502446,0,105,3,69,40,5,111011,0000001101,105,80950,0000000,5080,0000000,1129,105,0,5449974,0031,4,0,0,0,0,1,0
56,56,0,0,1ffffbb58,0000006f910,0002a4,111100110,26,7,634502446,0,105,3,69,40,5,111011,0000001101,105,80950,0000000,5080,0000000,1128,105,0,5449974,0031,4,0,0,0,0,1,0
57,57,0,0,1ffffbb58,0000006f910,0002a4,111100110,26,7,634502446,0,105,3,69,40,5,111011,0000001101,105,80950,0000000,5080,0000000,1127,104,0,5449974,0031,4,0,0,0,0,1,0
58,58,0,0,1ffffbb58,0000006f910,0002a4,111100110,26,7,634502446,0,105,3,68,40,5,111011,0000001101,105,80950,0000000,5080,0000000,1126,104,0,5449974,0031,4,0,0,0,0,1,0
59,59,0,0,1ffffbb58,0000006f910,0002a4,111100110,26,7,634502446,0,105,3,68,40,5,111011,0000001101,105,80950,0000000,5080,0000000,1125,104,0,5449974,0031,4,0,0,0,0,1,0
60,60,0,0,1ffffbb58,0000006f910,0002a4,111100110,26,7,634502446,0,105,3,68,40,5,111011,0000001101,105,80950,0000000,5080,0000000,1124,105,0,5449974,0031,4,0,0,0,0,1,0
61,61,0,0,1ffffbb58,0000006f910,0002a4,111100110,26,7,634502446,0,105,3,69,40,5,111011,0000001101,105,80950,0000000,5080,0000000,1123,105,0,5449974,0031,4,0,0,0,0,1,0
62,62,0,0,1ffffbb58,0000006f910,0002a4,111100110,26,7,634502446,0,105,3,69,40,5,111011,0000001101,105,80950,0000000,5080,0000000,1122,105,0,5449974,0031,4,0,0,0,0,1,0
63,63,0,0,1ffffbb58,0000006f910,0002a4,111100110,26,7,634502446,0,105,3,69,40,5,111011,0000001101,105,80950,0000000,5080,0000000,1121,105,0,5449974,0031,4,0,0,0,0,1,0
64,64,0,0,1ffffbb58,0000006f910,0002a4,111100110,26,7,634502446,0,105,3,69,40,5,111011,0000001101,106,80950,0000000,5080,0000000,1120,105,0,5449974,0031,4,0,0,0,0,1,0
65,65,0,0,1ffffbb58,0000006f910,0002a4,111100110,26,7,634502446,0,105,3,69,40,5,111011,0000001101,106,80950,0000000,5080,0000000,1119,104,0,5449974,0031,4,0,0,0,0,1,0
66,66,0,0,1ffffbb58,0000006f910,0002a4,111100110,26,7,634502446,0,105,3,68,40,5,111011,0000001101,105,80950,0000000,5080,0000000,1118,104,0,5449974,0031,4,0,0,0,0,1,0
67,67,0,0,1ffffbb58,0000006f910,0002a4,111100110,26,7,634502446,0,105,3,68,40,5,111011,0000001101,105,80950,0000000,5080,0000000,1117,104,0,5449974,0031,4,0,0,0,0,1,0
68,68,0,0,1ffffbb58,0000006f910,0002a4,111100110,26,7,634502446,0,105,3,68,40,5,111011,0000001101,105,80950,0000000,5080,0000000,1116,105,0,5449974,0031,4,0,0,0,0,1,0
69,69,0,0,1ffffbb58,0000006f910,0002a4,111100110,26,7,634502446,0,105,3,69,40,5,111011,0000001101,105,80950,0000000,5080,0000000,1115,105,0,5449974,0031,4,0,0,0,0,1,0
70,70,0,0,1ffffbb58,0000006f910,0002a4,111100110,26,7,634502446,0,105,3,69,40,5,111011,0000001101,105,80950,0000000,5080,0000000,1114,105,0,5449974,0031,4,0,0,0,0,1,0
71,71,0,0,1ffffbb58,0000006f910,0002a4,111100110,26,7,634502446,0,105,3,69,40,5,111011,0000001101,105,80950,0000000,5080,0000000,1113,105,0,5449974,0031,4,0,0,0,0,1,0
72,72,0,0,1ffffbb58,0000006f910,0002a4,111100110,26,7,634502446,0,105,3,69,40,5,111011,0000001101,105,80950,0000000,5080,0000000,1112,105,0,5449974,0031,4,0,0,0,0,1,0
73,73,0,0,1ffffbb58,0000006f910,0002a4,111100110,26,7,634502446,0,105,3,69,40,5,111011,0000001101,105,80950,0000000,5080,0000000,1111,105,0,5449974,0031,4,0,0,0,0,1,0
74,74,0,0,1ffffbb58,0000006f910,0002a4,111100110,26,7,634502446,0,105,3,69,40,5,111011,0000001101,105,80950,0000000,5080,0000000,1110,105,0,5449974,0031,4,0,0,0,0,1,0
75,75,0,0,1ffffbb58,0000006f910,0002a4,111100110,26,7,634502446,0,105,3,69,40,5,111011,0000001101,105,80950,0000000,5080,0000000,1109,105,0,5449974,0031,4,0,0,0,0,1,0
76,76,0,0,1ffffbb58,0000006f910,0002a4,111100110,26,7,634502446,0,105,3,69,40,5,111011,0000001101,105,80950,0000000,5080,0000000,1108,105,0,5449974,0031,4,0,0,0,0,1,0
77,77,0,0,1ffffbb58,0000006f910,0002a4,111100110,26,7,634502446,0,105,3,69,40,5,111011,0000001101,105,80950,0000000,5080,0000000,1107,105,0,5449974,0031,4,0,0,0,0,1,0
78,78,0,0,1ffffbb58,0000006f910,0002a4,111100110,26,7,634502446,0,105,3,69,40,5,111011,0000001101,105,80950,0000000,5080,0000000,1106,105,0,5449974,0031,4,0,0,0,0,1,0
79,79,0,0,1ffffbb58,0000006f910,0002a4,111100110,26,7,634502446,0,105,3,69,40,5,111011,0000001101,105,80950,0000000,5080,0000000,1105,105,0,5449974,0031,4,0,0,0,0,1,0
80,80,0,0,1ffffbb58,0000006f910,0002a4,111100110,26,7,634502446,0,105,3,69,40,5,111011,0000001101,105,80950,0000000,5080,0000000,1104,105,0,5449974,0031,4,0,0,0,0,1,0
81,81,0,0,1ffffbb58,0000006f910,0002a4,111100110,26,7,634502446,0,105,3,69,40,5,111011,0000001101,105,80950,0000000,5080,0000000,1103,105,0,5449974,0031,4,0,0,0,0,1,0
82,82,0,0,1ffffbb58,0000006f910,0002a4,111100110,26,7,634502446,0,105,3,69,40,5,111011,0000001101,105,80950,0000000,5080,0000000,1102,105,0,5449974,0031,4,0,0,0,0,1,0
83,83,0,0,1ffffbb58,0000006f910,0002a4,111100110,26,7,634502446,0,105,3,69,40,5,111011,0000001101,105,80950,0000000,5080,0000000,1101,105,0,5449974,0031,4,0,0,0,0,1,0
84,84,0,0,1ffffbb58,0000006f910,0002a4,111100110,26,7,634502446,0,105,3,69,40,5,111011,0000001101,105,80950,0000000,5080,0000000,1100,105,0,5449974,0031,4,0,0,0,0,1,0
85,85,0,0,1ffffbb58,0000006f910,0002a4,111100110,26,7,634502446,0,105,3,69,40,5,111011,0000001101,105,80950,0000000,5080,0000000,1099,105,0,5449974,0031,4,0,0,0,0,1,0
86,86,0,0,1ffffbb58,0000006f910,0002a4,111100110,26,7,634502446,0,105,3,69,40,5,111011,0000001101,105,80950,0000000,5080,0000000,1098,105,0,5449974,0031,4,0,0,0,0,1,0
87,87,0,0,1ffffbb58,0000006f910,0002a4,111100110,26,7,634502446,0,105,3,69,40,5,111011,0000001101,105,80950,0000000,5080,0000000,1097,105,0,5449974,0031,4,0,0,0,0,1,0
88,88,0,0,1ffffbb58,0000006f910,0002a4,111100110,26,7,634502446,0,105,3,69,40,5,111011,0000001101,104,80950,0000000,5080,0000000,1096,105,0,5449974,0031,4,0,0,0,0,1,0
89,89,0,0,1ffffbb58,0000006f910,0002a4,111100110,26,7,634502446,0,105,3,69,40,5,111011,0000001101,104,80950,0000000,5080,0000000,1095,105,0,5449974,0031,4,0,0,0,0,1,0
90,90,0,0,1ffffbb58,0000006f910,0002a4,111100110,26,7,634502446,0,105,3,69,40,5,111011,0000001101,104,80950,0000000,5080,0000000,1094,104,0,5449974,0031,4,0,0,0,0,1,0
91,91,0,0,1ffffbb58,0000006f910,0002a4,111100110,26,7,634502446,0,105,3,68,40,5,111011,0000001101,104,80950,0000000,5080,0000000,1093,104,0,5449974,0031,4,0,0,0,0,1,0
92,92,0,0,1ffffbb58,0000006f910,0002a4,111100110,26,7,634502446,0,105,3,68,40,5,111011,0000001101,105,80950,0000000,5080,0000000,1092,105,0,5449974,0031,4,0,0,0,0,1,0
93,93,0,0,1ffffbb58,0000006f910,0002a4,111100110,26,7,634502446,0,105,3,69,40,5,111011,0000001101,105,80950,0000000,5080,0000000,1091,105,0,5449974,0031,4,0,0,0,0,1,0
94,94,0,0,1ffffbb58,0000006f910,0002a4,111100110,26,7,634502446,0,105,3,69,40,5,111011,0000001101,105,80950,0000000,5080,0000000,1090,105,0,5449974,0031,4,0,0,0,0,1,0
95,95,0,0,1ffffbb58,0000006f910,0002a4,111100110,26,7,634502446,0,105,3,69,40,5,111011,0000001101,105,80950,0000000,5080,0000000,1089,105,0,5449974,0031,4,0,0,0,0,1,0
96,96,0,0,1ffffbb58,0000006f910,0002a4,111100110,26,7,634502446,0,105,3,69,40,5,111011,0000001101,105,80950,0000000,5080,0000000,1088,104,0,5449974,0031,4,0,0,0,0,1,0
97,97,0,0,1ffffbb58,0000006f910,0002a4,111100110,26,7,634502446,0,105,3,68,40,5,111011,0000001101,105,80950,0000000,5080,0000000,1087,105,0,5449974,0031,4,0,0,0,0,1,0
98,98,0,0,1ffffbb58,0000006f910,0002a4,111100110,26,7,634502446,0,105,3,69,40,5,111011,0000001101,105,80950,0000000,5080,0000000,1086,104,0,5449974,0031,4,0,0,0,0,1,0
99,99,0,0,1ffffbb58,0000006f910,0002a4,111100110,26,7,634502446,0,105,3,68,40,5,111011,0000001101,105,80950,0000000,5080,0000000,1085,104,0,5449974,0031,4,0,0,0,0,1,0
100,100,0,0,1ffffbb58,0000006f910,0002a4,111100110,26,7,634502446,0,105,3,68,40,5,111011,0000001101,105,80950,0000000,5080,0000000,1084,105,0,5449974,0031,4,0,0,0,0,1,0
101,101,0,0,1ffffbb58,0000006f910,0002a4,111100110,26,7,634502446,0,105,3,69,40,5,111011,0000001101,105,80950,0000000,5080,0000000,1083,105,0,5449974,0031,4,0,0,0,0,1,0
102,102,0,0,1ffffbb58,0000006f910,0002a4,111100110,26,7,634502446,0,105,3,69,40,5,111011,0000001101,105,80950,0000000,5080,0000000,1082,105,0,5449974,0031,4,0,0,0,0,1,0
103,103,0,0,1ffffbb58,0000006f910,0002a4,111100110,26,7,634502446,0,105,3,69,40,5,111011,0000001101,105,80950,0000000,5080,0000000,1081,105,0,5449974,0031,4,0,0,0,0,1,0
104,104,0,0,1ffffbb58,0000006f910,0002a4,111100110,26,7,634502446,0,105,3,69,40,5,111011,0000001101,104,80950,0000000,5080,0000000,1080,104,0,5449974,0031,4,0,0,0,0,1,0
105,105,0,0,1ffffbb58,0000006f910,0002a4,111100110,26,7,634502446,0,105,3,68,40,5,111011,0000001101,104,80950,0000000,5080,0000000,1079,104,0,5449974,0031,4,0,0,0,0,1,0
106,106,0,0,1ffffbb58,0000006f910,0002a4,111100110,26,7,634502446,0,105,3,68,40,5,111011,0000001101,105,80950,0000000,5080,0000000,1078,105,0,5449974,0031,4,0,0,0,0,1,0
107,107,0,0,1ffffbb58,0000006f910,0002a4,111100110,26,7,634502446,0,105,3,69,40,5,111011,0000001101,105,80950,0000000,5080,0000000,1077,105,0,5449974,0031,4,0,0,0,0,1,0
108,108,0,0,1ffffbb58,0000006f910,0002a4,111100110,26,7,634502446,0,105,3,69,40,5,111011,0000001101,105,80950,0000000,5080,0000000,1076,105,0,5449974,0031,4,0,0,0,0,1,0
109,109,0,0,1ffffbb58,0000006f910,0002a4,111100110,26,7,634502446,0,105,3,69,40,5,111011,0000001101,105,80950,0000000,5080,0000000,1075,105,0,5449974,0031,4,0,0,0,0,1,0
110,110,0,0,1ffffbb58,0000006f910,0002a4,111100110,26,7,634502446,0,105,3,69,40,5,111011,0000001101,105,80950,0000000,5080,0000000,1074,105,0,5449974,0031,4,0,0,0,0,1,0
111,111,0,0,1ffffbb58,0000006f910,0002a4,111100110,26,7,634502446,0,105,3,69,40,5,111011,0000001101,104,80950,0000000,5080,0000000,1073,105,0,5449974,0031,4,0,0,0,0,1,0
