Sample in Buffer,Sample in Window,TRIGGER,example_top/Fourth_moment[40:0],example_top/Front_area[5:0],Front_area[15:6],example_top/Mean_value_remainders[7:0],example_top/MonopulsePosition_1[5:0],MonopulsePosition[15:6],example_top/MonopulsePosition[31:16],example_top/Monopulse_num[15:0],example_top/Mean_value[7:0],example_top/Monopulse_data1[15:0],example_top/Behind_area[5:0],Behind_area[15:6],example_top/Count[15:0],u_ila_1_Monopulse_data_1[7:0],example_top/Arithmetic_State[2:0],example_top/Second_moment[23:0],u_ila_1_WaveState[1:0],example_top/Pulse_point_num[15:0],example_top/time_cnt[15:0],example_top/PeriodPoint_num[31:0],u_ila_1_SendToArm_Data[31:0],example_top/Total_area[15:0],example_top/Read_Fifo_Out[15:0],example_top/Peak_value[7:0],Period_condition_1[10:10],Period_condition_2[10:10],Period_condition_3[10:10],Period_condition_4[10:10],Period_condition_5[10:10],Period_condition_6[10:10],Period_condition_7[10:10],Period_condition_8[10:10],Period_condition_9[10:10],Period_condition_10[10:10],Period_condition_11[10:10],Period_condition_12[10:10],Period_condition_13[10:10],Period_condition_14[10:10],Period_condition_15[10:10],Period_condition[10:10],example_top/Third_moment[32:0],example_top/ii[15:0],example_top/Square_data[20:0],example_top/Period_count[5:0],example_top/ReadPosition[31:0],u_ila_1_Extract_en,u_ila_1_FeatureExtraction_flag,SendIRQ_OBUF_1,SendIRQ_OBUF,example_top/S_FeatureExtraction_flag_reg1,SendBegin_reg,SendOver,example_top/SendToArm_begin,example_top/SendToArm_Over
0,0,0,0,000000,0000000000,0,1c,112,0000,0,0,0,000000,0000000000,0000,69,2,0,0,2,0,00000000,00000000,0,105,0,0,0,0,0,0,0,0,0,0,0,0,0,0,0,0,0,0,0000,000000,00,00004596,1,0,0,0,0,0,1,0,0
1,1,0,0,000000,0000000000,0,1c,112,0000,0,0,0,000000,0000000000,0000,69,2,0,0,2,0,00000000,00000000,0,105,0,0,0,0,0,0,0,0,0,0,0,0,0,0,0,0,0,0,0000,000000,00,00004597,1,0,0,0,0,0,1,0,0
2,2,0,0,000000,0000000000,0,1c,112,0000,0,0,0,000000,0000000000,0000,69,2,0,0,2,0,00000000,00000000,0,105,0,0,0,0,0,0,0,0,0,0,0,0,0,0,0,0,0,0,0000,000000,00,00004598,1,0,0,0,0,0,1,0,0
3,3,0,0,000000,0000000000,0,1c,112,0000,0,0,0,000000,0000000000,0000,69,2,0,0,2,0,00000000,00000000,0,105,0,0,0,0,0,0,0,0,0,0,0,0,0,0,0,0,0,0,0000,000000,00,00004599,1,0,0,0,0,0,1,0,0
4,4,0,0,000000,0000000000,0,1c,112,0000,0,0,0,000000,0000000000,0000,69,2,0,0,2,0,00000000,00000000,0,105,0,0,0,0,0,0,0,0,0,0,0,0,0,0,0,0,0,0,0000,000000,00,0000459a,1,0,0,0,0,0,1,0,0
5,5,0,0,000000,0000000000,0,1c,112,0000,0,0,0,000000,0000000000,0000,69,2,0,0,2,0,00000000,00000000,0,105,0,0,0,0,0,0,0,0,0,0,0,0,0,0,0,0,0,0,0000,000000,00,0000459b,1,0,0,0,0,0,1,0,0
6,6,0,0,000000,0000000000,0,1c,112,0000,0,0,0,000000,0000000000,0000,69,2,0,0,2,0,00000000,00000000,0,105,0,0,0,0,0,0,0,0,0,0,0,0,0,0,0,0,0,0,0000,000000,00,0000459c,1,0,0,0,0,0,1,0,0
7,7,0,0,000000,0000000000,0,1c,112,0000,0,0,0,000000,0000000000,0000,69,2,0,0,2,0,00000000,00000000,0,105,0,0,0,0,0,0,0,0,0,0,0,0,0,0,0,0,0,0,0000,000000,00,0000459d,1,0,0,0,0,0,1,0,0
8,8,0,0,000000,0000000000,0,1c,112,0000,0,0,0,000000,0000000000,0000,69,2,0,0,2,0,00000000,00000000,0,105,0,0,0,0,0,0,0,0,0,0,0,0,0,0,0,0,0,0,0000,000000,00,0000459e,1,0,0,0,0,0,1,0,0
9,9,0,0,000000,0000000000,0,1c,112,0000,0,0,0,000000,0000000000,0000,69,2,0,0,2,0,00000000,00000000,0,105,0,0,0,0,0,0,0,0,0,0,0,0,0,0,0,0,0,0,0000,000000,00,0000459f,1,0,0,0,0,0,1,0,0
10,10,0,0,000000,0000000000,0,1c,112,0000,0,0,0,000000,0000000000,0000,69,2,0,0,2,0,00000000,00000000,0,105,0,0,0,0,0,0,0,0,0,0,0,0,0,0,0,0,0,0,0000,000000,00,000045a0,1,0,0,0,0,0,1,0,0
11,11,0,0,000000,0000000000,0,1c,112,0000,0,0,0,000000,0000000000,0000,69,2,0,0,2,0,00000000,00000000,0,105,0,0,0,0,0,0,0,0,0,0,0,0,0,0,0,0,0,0,0000,000000,00,000045a1,1,0,0,0,0,0,1,0,0
12,12,0,0,000000,0000000000,0,1c,112,0000,0,0,0,000000,0000000000,0000,69,2,0,0,2,0,00000000,00000000,0,105,0,0,0,0,0,0,0,0,0,0,0,0,0,0,0,0,0,0,0000,000000,00,000045a2,1,0,0,0,0,0,1,0,0
13,13,0,0,000000,0000000000,0,1c,112,0000,0,0,0,000000,0000000000,0000,69,2,0,0,2,0,00000000,00000000,0,105,0,0,0,0,0,0,0,0,0,0,0,0,0,0,0,0,0,0,0000,000000,00,000045a3,1,0,0,0,0,0,1,0,0
14,14,0,0,000000,0000000000,0,1c,112,0000,0,0,0,000000,0000000000,0000,69,2,0,0,2,0,00000000,00000000,0,105,0,0,0,0,0,0,0,0,0,0,0,0,0,0,0,0,0,0,0000,000000,00,000045a4,1,0,0,0,0,0,1,0,0
15,15,0,0,000000,0000000000,0,1c,112,0000,0,0,0,000000,0000000000,0000,69,2,0,0,2,0,00000000,00000000,0,105,0,0,0,0,0,0,0,0,0,0,0,0,0,0,0,0,0,0,0000,000000,00,000045a5,1,0,0,0,0,0,1,0,0
16,16,0,0,000000,0000000000,0,1c,112,0000,0,0,0,000000,0000000000,0000,69,2,0,0,2,0,00000000,00000000,0,105,0,0,0,0,0,0,0,0,0,0,0,0,0,0,0,0,0,0,0000,000000,00,000045a6,1,0,0,0,0,0,1,0,0
17,17,0,0,000000,0000000000,0,1c,112,0000,0,0,0,000000,0000000000,0000,69,2,0,0,2,0,00000000,00000000,0,105,0,0,0,0,0,0,0,0,0,0,0,0,0,0,0,0,0,0,0000,000000,00,000045a7,1,0,0,0,0,0,1,0,0
18,18,0,0,000000,0000000000,0,1c,112,0000,0,0,0,000000,0000000000,0000,69,2,0,0,2,0,00000000,00000000,0,105,0,0,0,0,0,0,0,0,0,0,0,0,0,0,0,0,0,0,0000,000000,00,000045a8,1,0,0,0,0,0,1,0,0
19,19,0,0,000000,0000000000,0,1c,112,0000,0,0,0,000000,0000000000,0000,69,2,0,0,2,0,00000000,00000000,0,105,0,0,0,0,0,0,0,0,0,0,0,0,0,0,0,0,0,0,0000,000000,00,000045a9,1,0,0,0,0,0,1,0,0
20,20,0,0,000000,0000000000,0,1c,112,0000,0,0,0,000000,0000000000,0000,69,2,0,0,2,0,00000000,00000000,0,105,0,0,0,0,0,0,0,0,0,0,0,0,0,0,0,0,0,0,0000,000000,00,000045aa,1,0,0,0,0,0,1,0,0
21,21,0,0,000000,0000000000,0,1c,112,0000,0,0,0,000000,0000000000,0000,69,2,0,0,2,0,00000000,00000000,0,105,0,0,0,0,0,0,0,0,0,0,0,0,0,0,0,0,0,0,0000,000000,00,000045ab,1,0,0,0,0,0,1,0,0
22,22,0,0,000000,0000000000,0,1c,112,0000,0,0,0,000000,0000000000,0000,69,2,0,0,2,0,00000000,00000000,0,105,0,0,0,0,0,0,0,0,0,0,0,0,0,0,0,0,0,0,0000,000000,00,000045ac,1,0,0,0,0,0,1,0,0
23,23,0,0,000000,0000000000,0,1c,112,0000,0,0,0,000000,0000000000,0000,69,2,0,0,2,0,00000000,00000000,0,105,0,0,0,0,0,0,0,0,0,0,0,0,0,0,0,0,0,0,0000,000000,00,000045ad,1,0,0,0,0,0,1,0,0
24,24,0,0,000000,0000000000,0,1c,112,0000,0,0,0,000000,0000000000,0000,69,2,0,0,2,0,00000000,00000000,0,105,0,0,0,0,0,0,0,0,0,0,0,0,0,0,0,0,0,0,0000,000000,00,000045ae,1,0,0,0,0,0,1,0,0
25,25,0,0,000000,0000000000,0,1c,112,0000,0,0,0,000000,0000000000,0000,69,2,0,0,2,0,00000000,00000000,0,105,0,0,0,0,0,0,0,0,0,0,0,0,0,0,0,0,0,0,0000,000000,00,000045af,1,0,0,0,0,0,1,0,0
26,26,0,0,000000,0000000000,0,1c,112,0000,0,0,0,000000,0000000000,0000,69,2,0,0,2,0,00000000,00000000,0,105,0,0,0,0,0,0,0,0,0,0,0,0,0,0,0,0,0,0,0000,000000,00,000045b0,1,0,0,0,0,0,1,0,0
27,27,0,0,000000,0000000000,0,1c,112,0000,0,0,0,000000,0000000000,0000,69,2,0,0,2,0,00000000,00000000,0,105,0,0,0,0,0,0,0,0,0,0,0,0,0,0,0,0,0,0,0000,000000,00,000045b1,1,0,0,0,0,0,1,0,0
28,28,0,0,000000,0000000000,0,1c,112,0000,0,0,0,000000,0000000000,0000,69,2,0,0,2,0,00000000,00000000,0,105,0,0,0,0,0,0,0,0,0,0,0,0,0,0,0,0,0,0,0000,000000,00,000045b2,1,0,0,0,0,0,1,0,0
29,29,0,0,000000,0000000000,0,1c,112,0000,0,0,0,000000,0000000000,0000,69,2,0,0,2,0,00000000,00000000,0,105,0,0,0,0,0,0,0,0,0,0,0,0,0,0,0,0,0,0,0000,000000,00,000045b3,1,0,0,0,0,0,1,0,0
30,30,0,0,000000,0000000000,0,1c,112,0000,0,0,0,000000,0000000000,0000,69,2,0,0,2,0,00000000,00000000,0,105,0,0,0,0,0,0,0,0,0,0,0,0,0,0,0,0,0,0,0000,000000,00,000045b4,1,0,0,0,0,0,1,0,0
31,31,0,0,000000,0000000000,0,1c,112,0000,0,0,0,000000,0000000000,0000,69,2,0,0,2,0,00000000,00000000,0,105,0,0,0,0,0,0,0,0,0,0,0,0,0,0,0,0,0,0,0000,000000,00,000045b5,1,0,0,0,0,0,1,0,0
32,32,0,0,000000,0000000000,0,1c,112,0000,0,0,0,000000,0000000000,0000,69,2,0,0,2,0,00000000,00000000,0,105,0,0,0,0,0,0,0,0,0,0,0,0,0,0,0,0,0,0,0000,000000,00,000045b6,1,0,0,0,0,0,1,0,0
33,33,0,0,000000,0000000000,0,1c,112,0000,0,0,0,000000,0000000000,0000,69,2,0,0,2,0,00000000,00000000,0,105,0,0,0,0,0,0,0,0,0,0,0,0,0,0,0,0,0,0,0000,000000,00,000045b7,1,0,0,0,0,0,1,0,0
34,34,0,0,000000,0000000000,0,1c,112,0000,0,0,0,000000,0000000000,0000,69,2,0,0,2,0,00000000,00000000,0,105,0,0,0,0,0,0,0,0,0,0,0,0,0,0,0,0,0,0,0000,000000,00,000045b8,1,0,0,0,0,0,1,0,0
35,35,0,0,000000,0000000000,0,1c,112,0000,0,0,0,000000,0000000000,0000,69,2,0,0,2,0,00000000,00000000,0,105,0,0,0,0,0,0,0,0,0,0,0,0,0,0,0,0,0,0,0000,000000,00,000045b9,1,0,0,0,0,0,1,0,0
36,36,0,0,000000,0000000000,0,1c,112,0000,0,0,0,000000,0000000000,0000,69,2,0,0,2,0,00000000,00000000,0,105,0,0,0,0,0,0,0,0,0,0,0,0,0,0,0,0,0,0,0000,000000,00,000045ba,1,0,0,0,0,0,1,0,0
37,37,0,0,000000,0000000000,0,1c,112,0000,0,0,0,000000,0000000000,0000,69,2,0,0,2,0,00000000,00000000,0,105,0,0,0,0,0,0,0,0,0,0,0,0,0,0,0,0,0,0,0000,000000,00,000045bb,1,0,0,0,0,0,1,0,0
38,38,0,0,000000,0000000000,0,1c,112,0000,0,0,0,000000,0000000000,0000,69,2,0,0,2,0,00000000,00000000,0,105,0,0,0,0,0,0,0,0,0,0,0,0,0,0,0,0,0,0,0000,000000,00,000045bc,1,0,0,0,0,0,1,0,0
39,39,0,0,000000,0000000000,0,1c,112,0000,0,0,0,000000,0000000000,0000,69,2,0,0,2,0,00000000,00000000,0,105,0,0,0,0,0,0,0,0,0,0,0,0,0,0,0,0,0,0,0000,000000,00,000045bd,1,0,0,0,0,0,1,0,0
40,40,0,0,000000,0000000000,0,1c,112,0000,0,0,0,000000,0000000000,0000,69,2,0,0,2,0,00000000,00000000,0,105,0,0,0,0,0,0,0,0,0,0,0,0,0,0,0,0,0,0,0000,000000,00,000045be,1,0,0,0,0,0,1,0,0
41,41,0,0,000000,0000000000,0,1c,112,0000,0,0,0,000000,0000000000,0000,69,2,0,0,2,0,00000000,00000000,0,105,0,0,0,0,0,0,0,0,0,0,0,0,0,0,0,0,0,0,0000,000000,00,000045bf,1,0,0,0,0,0,1,0,0
42,42,0,0,000000,0000000000,0,1c,112,0000,0,0,0,000000,0000000000,0000,69,2,0,0,2,0,00000000,00000000,0,105,0,0,0,0,0,0,0,0,0,0,0,0,0,0,0,0,0,0,0000,000000,00,000045c0,1,0,0,0,0,0,1,0,0
43,43,0,0,000000,0000000000,0,1c,112,0000,0,0,0,000000,0000000000,0000,69,2,0,0,2,0,00000000,00000000,0,105,0,0,0,0,0,0,0,0,0,0,0,0,0,0,0,0,0,0,0000,000000,00,000045c1,1,0,0,0,0,0,1,0,0
44,44,0,0,000000,0000000000,0,1c,112,0000,0,0,0,000000,0000000000,0000,69,2,0,0,2,0,00000000,00000000,0,105,0,0,0,0,0,0,0,0,0,0,0,0,0,0,0,0,0,0,0000,000000,00,000045c2,1,0,0,0,0,0,1,0,0
45,45,0,0,000000,0000000000,0,1c,112,0000,0,0,0,000000,0000000000,0000,69,2,0,0,2,0,00000000,00000000,0,105,0,0,0,0,0,0,0,0,0,0,0,0,0,0,0,0,0,0,0000,000000,00,000045c3,1,0,0,0,0,0,1,0,0
46,46,0,0,000000,0000000000,0,1c,112,0000,0,0,0,000000,0000000000,0000,69,2,0,0,2,0,00000000,00000000,0,105,0,0,0,0,0,0,0,0,0,0,0,0,0,0,0,0,0,0,0000,000000,00,000045c4,1,0,0,0,0,0,1,0,0
47,47,0,0,000000,0000000000,0,1c,112,0000,0,0,0,000000,0000000000,0000,69,2,0,0,2,0,00000000,00000000,0,105,0,0,0,0,0,0,0,0,0,0,0,0,0,0,0,0,0,0,0000,000000,00,000045c5,1,0,0,0,0,0,1,0,0
48,48,0,0,000000,0000000000,0,1c,112,0000,0,0,0,000000,0000000000,0000,69,2,0,0,2,0,00000000,00000000,0,105,0,0,0,0,0,0,0,0,0,0,0,0,0,0,0,0,0,0,0000,000000,00,000045c6,1,0,0,0,0,0,1,0,0
49,49,0,0,000000,0000000000,0,1c,112,0000,0,0,0,000000,0000000000,0000,69,2,0,0,2,0,00000000,00000000,0,105,0,0,0,0,0,0,0,0,0,0,0,0,0,0,0,0,0,0,0000,000000,00,000045c7,1,0,0,0,0,0,1,0,0
50,50,0,0,000000,0000000000,0,1c,112,0000,0,0,0,000000,0000000000,0000,69,2,0,0,2,0,00000000,00000000,0,105,0,0,0,0,0,0,0,0,0,0,0,0,0,0,0,0,0,0,0000,000000,00,000045c8,1,0,0,0,0,0,1,0,0
51,51,0,0,000000,0000000000,0,1c,112,0000,0,0,0,000000,0000000000,0000,69,2,0,0,2,0,00000000,00000000,0,106,0,0,0,0,0,0,0,0,0,0,0,0,0,0,0,0,0,0,0000,000000,00,000045c9,1,0,0,0,0,0,1,0,0
52,52,0,0,000000,0000000000,0,1c,112,0000,0,0,0,000000,0000000000,0000,6b,2,0,0,2,0,00000000,00000000,0,105,0,0,0,0,0,0,0,0,0,0,0,0,0,0,0,0,0,0,0000,000000,00,000045ca,1,0,0,0,0,0,1,0,0
53,53,0,0,000000,0000000000,0,1c,112,0000,0,0,0,000000,0000000000,0000,69,2,0,0,2,0,00000000,00000000,0,106,0,0,0,0,0,0,0,0,0,0,0,0,0,0,0,0,0,0,0000,000000,00,000045cb,1,0,0,0,0,0,1,0,0
54,54,0,0,000000,0000000000,0,1c,112,0000,0,0,0,000000,0000000000,0000,6b,2,0,0,2,0,00000000,00000000,0,105,0,0,0,0,0,0,0,0,0,0,0,0,0,0,0,0,0,0,0000,000000,00,000045cc,1,0,0,0,0,0,1,0,0
55,55,0,0,000000,0000000000,0,1c,112,0000,0,0,0,000000,0000000000,0000,69,2,0,0,2,0,00000000,00000000,0,106,0,0,0,0,0,0,0,0,0,0,0,0,0,0,0,0,0,0,0000,000000,00,000045cd,1,0,0,0,0,0,1,0,0
56,56,0,0,000000,0000000000,0,1c,112,0000,0,0,0,000000,0000000000,0000,6b,2,0,0,2,0,00000000,00000000,0,105,0,0,0,0,0,0,0,0,0,0,0,0,0,0,0,0,0,0,0000,000000,00,000045ce,1,0,0,0,0,0,1,0,0
57,57,0,0,000000,0000000000,0,1c,112,0000,0,0,0,000000,0000000000,0000,69,2,0,0,2,0,00000000,00000000,0,105,0,0,0,0,0,0,0,0,0,0,0,0,0,0,0,0,0,0,0000,000000,00,000045cf,1,0,0,0,0,0,1,0,0
58,58,0,0,000000,0000000000,0,1c,112,0000,0,0,0,000000,0000000000,0000,69,2,0,0,2,0,00000000,00000000,0,105,0,0,0,0,0,0,0,0,0,0,0,0,0,0,0,0,0,0,0000,000000,00,000045d0,1,0,0,0,0,0,1,0,0
59,59,0,0,000000,0000000000,0,1c,112,0000,0,0,0,000000,0000000000,0000,69,2,0,0,2,0,00000000,00000000,0,105,0,0,0,0,0,0,0,0,0,0,0,0,0,0,0,0,0,0,0000,000000,00,000045d1,1,0,0,0,0,0,1,0,0
60,60,0,0,000000,0000000000,0,1c,112,0000,0,0,0,000000,0000000000,0000,69,2,0,0,2,0,00000000,00000000,0,105,0,0,0,0,0,0,0,0,0,0,0,0,0,0,0,0,0,0,0000,000000,00,000045d2,1,0,0,0,0,0,1,0,0
61,61,0,0,000000,0000000000,0,1c,112,0000,0,0,0,000000,0000000000,0000,69,2,0,0,2,0,00000000,00000000,0,105,0,0,0,0,0,0,0,0,0,0,0,0,0,0,0,0,0,0,0000,000000,00,000045d3,1,0,0,0,0,0,1,0,0
62,62,0,0,000000,0000000000,0,1c,112,0000,0,0,0,000000,0000000000,0000,69,2,0,0,2,0,00000000,00000000,0,105,0,0,0,0,0,0,0,0,0,0,0,0,0,0,0,0,0,0,0000,000000,00,000045d4,1,0,0,0,0,0,1,0,0
63,63,0,0,000000,0000000000,0,1c,112,0000,0,0,0,000000,0000000000,0000,69,2,0,0,2,0,00000000,00000000,0,105,0,0,0,0,0,0,0,0,0,0,0,0,0,0,0,0,0,0,0000,000000,00,000045d5,1,0,0,0,0,0,1,0,0
64,64,0,0,000000,0000000000,0,1c,112,0000,0,0,0,000000,0000000000,0000,69,2,0,0,2,0,00000000,00000000,0,104,0,0,0,0,0,0,0,0,0,0,0,0,0,0,0,0,0,0,0000,000000,00,000045d6,1,0,0,0,0,0,1,0,0
65,65,0,0,000000,0000000000,0,1c,112,0000,0,0,0,000000,0000000000,0000,69,2,0,0,2,0,00000000,00000000,0,105,0,0,0,0,0,0,0,0,0,0,0,0,0,0,0,0,0,0,0000,000000,00,000045d7,1,0,0,0,0,0,1,0,0
66,66,0,0,000000,0000000000,0,1c,112,0000,0,0,0,000000,0000000000,0000,69,2,0,0,2,0,00000000,00000000,0,105,0,0,0,0,0,0,0,0,0,0,0,0,0,0,0,0,0,0,0000,000000,00,000045d8,1,0,0,0,0,0,1,0,0
67,67,0,0,000000,0000000000,0,1c,112,0000,0,0,0,000000,0000000000,0000,69,2,0,0,2,0,00000000,00000000,0,104,0,0,0,0,0,0,0,0,0,0,0,0,0,0,0,0,0,0,0000,000000,00,000045d9,1,0,0,0,0,0,1,0,0
68,68,0,0,000000,0000000000,0,1c,112,0000,0,0,0,000000,0000000000,0000,69,2,0,0,2,0,00000000,00000000,0,105,0,0,0,0,0,0,0,0,0,0,0,0,0,0,0,0,0,0,0000,000000,00,000045da,1,0,0,0,0,0,1,0,0
69,69,0,0,000000,0000000000,0,1c,112,0000,0,0,0,000000,0000000000,0000,69,2,0,0,2,0,00000000,00000000,0,104,0,0,0,0,0,0,0,0,0,0,0,0,0,0,0,0,0,0,0000,000000,00,000045db,1,0,0,0,0,0,1,0,0
70,70,0,0,000000,0000000000,0,1c,112,0000,0,0,0,000000,0000000000,0000,69,2,0,0,2,0,00000000,00000000,0,105,0,0,0,0,0,0,0,0,0,0,0,0,0,0,0,0,0,0,0000,000000,00,000045dc,1,0,0,0,0,0,1,0,0
71,71,0,0,000000,0000000000,0,1c,112,0000,0,0,0,000000,0000000000,0000,69,2,0,0,2,0,00000000,00000000,0,104,0,0,0,0,0,0,0,0,0,0,0,0,0,0,0,0,0,0,0000,000000,00,000045dd,1,0,0,0,0,0,1,0,0
72,72,0,0,000000,0000000000,0,1c,112,0000,0,0,0,000000,0000000000,0000,69,2,0,0,2,0,00000000,00000000,0,105,0,0,0,0,0,0,0,0,0,0,0,0,0,0,0,0,0,0,0000,000000,00,000045de,1,0,0,0,0,0,1,0,0
73,73,0,0,000000,0000000000,0,1c,112,0000,0,0,0,000000,0000000000,0000,69,2,0,0,2,0,00000000,00000000,0,105,0,0,0,0,0,0,0,0,0,0,0,0,0,0,0,0,0,0,0000,000000,00,000045df,1,0,0,0,0,0,1,0,0
74,74,0,0,000000,0000000000,0,1c,112,0000,0,0,0,000000,0000000000,0000,69,2,0,0,2,0,00000000,00000000,0,105,0,0,0,0,0,0,0,0,0,0,0,0,0,0,0,0,0,0,0000,000000,00,000045e0,1,0,0,0,0,0,1,0,0
75,75,0,0,000000,0000000000,0,1c,112,0000,0,0,0,000000,0000000000,0000,69,2,0,0,2,0,00000000,00000000,0,104,0,0,0,0,0,0,0,0,0,0,0,0,0,0,0,0,0,0,0000,000000,00,000045e1,1,0,0,0,0,0,1,0,0
76,76,0,0,000000,0000000000,0,1c,112,0000,0,0,0,000000,0000000000,0000,69,2,0,0,2,0,00000000,00000000,0,104,0,0,0,0,0,0,0,0,0,0,0,0,0,0,0,0,0,0,0000,000000,00,000045e2,1,0,0,0,0,0,1,0,0
77,77,0,0,000000,0000000000,0,1c,112,0000,0,0,0,000000,0000000000,0000,68,2,0,0,2,0,00000000,00000000,0,105,0,0,0,0,0,0,0,0,0,0,0,0,0,0,0,0,0,0,0000,000000,00,000045e3,1,0,0,0,0,0,1,0,0
78,78,0,0,000000,0000000000,0,1c,112,0000,0,0,0,000000,0000000000,0000,69,2,0,0,2,0,00000000,00000000,0,105,0,0,0,0,0,0,0,0,0,0,0,0,0,0,0,0,0,0,0000,000000,00,000045e4,1,0,0,0,0,0,1,0,0
79,79,0,0,000000,0000000000,0,1c,112,0000,0,0,0,000000,0000000000,0000,69,2,0,0,2,0,00000000,00000000,0,104,0,0,0,0,0,0,0,0,0,0,0,0,0,0,0,0,0,0,0000,000000,00,000045e5,1,0,0,0,0,0,1,0,0
80,80,0,0,000000,0000000000,0,1c,112,0000,0,0,0,000000,0000000000,0000,69,2,0,0,2,0,00000000,00000000,0,105,0,0,0,0,0,0,0,0,0,0,0,0,0,0,0,0,0,0,0000,000000,00,000045e6,1,0,0,0,0,0,1,0,0
81,81,0,0,000000,0000000000,0,1c,112,0000,0,0,0,000000,0000000000,0000,69,2,0,0,2,0,00000000,00000000,0,105,0,0,0,0,0,0,0,0,0,0,0,0,0,0,0,0,0,0,0000,000000,00,000045e7,1,0,0,0,0,0,1,0,0
82,82,0,0,000000,0000000000,0,1c,112,0000,0,0,0,000000,0000000000,0000,69,2,0,0,2,0,00000000,00000000,0,105,0,0,0,0,0,0,0,0,0,0,0,0,0,0,0,0,0,0,0000,000000,00,000045e8,1,0,0,0,0,0,1,0,0
83,83,0,0,000000,0000000000,0,1c,112,0000,0,0,0,000000,0000000000,0000,69,2,0,0,2,0,00000000,00000000,0,105,0,0,0,0,0,0,0,0,0,0,0,0,0,0,0,0,0,0,0000,000000,00,000045e9,1,0,0,0,0,0,1,0,0
84,84,0,0,000000,0000000000,0,1c,112,0000,0,0,0,000000,0000000000,0000,69,2,0,0,2,0,00000000,00000000,0,105,0,0,0,0,0,0,0,0,0,0,0,0,0,0,0,0,0,0,0000,000000,00,000045ea,1,0,0,0,0,0,1,0,0
85,85,0,0,000000,0000000000,0,1c,112,0000,0,0,0,000000,0000000000,0000,69,2,0,0,2,0,00000000,00000000,0,105,0,0,0,0,0,0,0,0,0,0,0,0,0,0,0,0,0,0,0000,000000,00,000045eb,1,0,0,0,0,0,1,0,0
86,86,0,0,000000,0000000000,0,1c,112,0000,0,0,0,000000,0000000000,0000,69,2,0,0,2,0,00000000,00000000,0,105,0,0,0,0,0,0,0,0,0,0,0,0,0,0,0,0,0,0,0000,000000,00,000045ec,1,0,0,0,0,0,1,0,0
87,87,0,0,000000,0000000000,0,1c,112,0000,0,0,0,000000,0000000000,0000,69,2,0,0,2,0,00000000,00000000,0,105,0,0,0,0,0,0,0,0,0,0,0,0,0,0,0,0,0,0,0000,000000,00,000045ed,1,0,0,0,0,0,1,0,0
88,88,0,0,000000,0000000000,0,1c,112,0000,0,0,0,000000,0000000000,0000,69,2,0,0,2,0,00000000,00000000,0,105,0,0,0,0,0,0,0,0,0,0,0,0,0,0,0,0,0,0,0000,000000,00,000045ee,1,0,0,0,0,0,1,0,0
89,89,0,0,000000,0000000000,0,1c,112,0000,0,0,0,000000,0000000000,0000,69,2,0,0,2,0,00000000,00000000,0,105,0,0,0,0,0,0,0,0,0,0,0,0,0,0,0,0,0,0,0000,000000,00,000045ef,1,0,0,0,0,0,1,0,0
90,90,0,0,000000,0000000000,0,1c,112,0000,0,0,0,000000,0000000000,0000,69,2,0,0,2,0,00000000,00000000,0,105,0,0,0,0,0,0,0,0,0,0,0,0,0,0,0,0,0,0,0000,000000,00,000045f0,1,0,0,0,0,0,1,0,0
91,91,0,0,000000,0000000000,0,1c,112,0000,0,0,0,000000,0000000000,0000,69,2,0,0,2,0,00000000,00000000,0,105,0,0,0,0,0,0,0,0,0,0,0,0,0,0,0,0,0,0,0000,000000,00,000045f1,1,0,0,0,0,0,1,0,0
92,92,0,0,000000,0000000000,0,1c,112,0000,0,0,0,000000,0000000000,0000,69,2,0,0,2,0,00000000,00000000,0,105,0,0,0,0,0,0,0,0,0,0,0,0,0,0,0,0,0,0,0000,000000,00,000045f2,1,0,0,0,0,0,1,0,0
93,93,0,0,000000,0000000000,0,1c,112,0000,0,0,0,000000,0000000000,0000,69,2,0,0,2,0,00000000,00000000,0,105,0,0,0,0,0,0,0,0,0,0,0,0,0,0,0,0,0,0,0000,000000,00,000045f3,1,0,0,0,0,0,1,0,0
94,94,0,0,000000,0000000000,0,1c,112,0000,0,0,0,000000,0000000000,0000,69,2,0,0,2,0,00000000,00000000,0,105,0,0,0,0,0,0,0,0,0,0,0,0,0,0,0,0,0,0,0000,000000,00,000045f4,1,0,0,0,0,0,1,0,0
95,95,0,0,000000,0000000000,0,1c,112,0000,0,0,0,000000,0000000000,0000,69,2,0,0,2,0,00000000,00000000,0,105,0,0,0,0,0,0,0,0,0,0,0,0,0,0,0,0,0,0,0000,000000,00,000045f5,1,0,0,0,0,0,1,0,0
96,96,0,0,000000,0000000000,0,1c,112,0000,0,0,0,000000,0000000000,0000,69,2,0,0,2,0,00000000,00000000,0,105,0,0,0,0,0,0,0,0,0,0,0,0,0,0,0,0,0,0,0000,000000,00,000045f6,1,0,0,0,0,0,1,0,0
97,97,0,0,000000,0000000000,0,1c,112,0000,0,0,0,000000,0000000000,0000,69,2,0,0,2,0,00000000,00000000,0,104,0,0,0,0,0,0,0,0,0,0,0,0,0,0,0,0,0,0,0000,000000,00,000045f7,1,0,0,0,0,0,1,0,0
98,98,0,0,000000,0000000000,0,1c,112,0000,0,0,0,000000,0000000000,0000,69,2,0,0,2,0,00000000,00000000,0,105,0,0,0,0,0,0,0,0,0,0,0,0,0,0,0,0,0,0,0000,000000,00,000045f8,1,0,0,0,0,0,1,0,0
