Sample in Buffer,Sample in Window,TRIGGER,example_top/MonopulseEx_Arithmetic1/Arithmetic1/test_num[15:0],example_top/AD_Count[2:0],example_top/Arithmetic_State[1:0],Period_condition_1[10:10],example_top/CountRead_tem[31:0],example_top/CountWrite_tem[31:0],example_top/Behind_area[5:0],Behind_area[15:6],example_top/Count[15:0],example_top/Period_condition[5:0],Period_condition_2[15:6],example_top/Period_count[5:0],example_top/Front_area[5:0],Front_area[15:6],example_top/MonopulsePosition_1[5:0],MonopulsePosition[15:6],example_top/MonopulsePosition[31:16],example_top/Read_Fifo_Out_r[15:0],example_top/Fourth_moment[40:0],example_top/Mean_value_remainders[7:0],example_top/Monopulse_data_01[7:0],example_top/Monopulse_num_reg[15:0],example_top/Mean_value[7:0],example_top/PeriodPoint_num[31:0],example_top/Pulse_point_num[15:0],example_top/ReadPosition[31:0],example_top/Read_Fifo_rusdw_o[10:0],example_top/Read_Fifo_wusdw_o[7:0],example_top/Second_moment[23:0],example_top/SendToArm_Count[7:0],Period_condition_3[10:10],Period_condition_4[10:10],Period_condition_5[10:10],Period_condition_6[10:10],Period_condition_7[10:10],Period_condition_8[10:10],Period_condition_9[10:10],Period_condition_10[10:10],Period_condition_11[10:10],Period_condition_12[10:10],Period_condition_13[10:10],Period_condition_14[10:10],Period_condition_15[10:10],Period_condition_16[10:10],Period_condition_17[10:10],Period_condition[10:10],example_top/Monopulse_data_1[7:0],example_top/Read_Fifo_Out[15:0],example_top/SendToArm_Data[31:0],example_top/Square_data[20:0],example_top/Third_moment[32:0],example_top/Total_area[15:0],example_top/Monopulse_data1[15:0],example_top/Monopulse_data_00[7:0],example_top/Monopulse_num[15:0],example_top/Peak_value[7:0],example_top/Write_Fifo_Out[127:0],example_top/app_wdf_data[127:0],example_top/app_rd_data2[15:0],example_top/app_rd_data7[15:0],example_top/app_rd_data3[15:0],example_top/ddr3_wr_data_r[127:0],example_top/app_rd_data5[15:0],example_top/app_addr[28:0],example_top/time_cnt_n[15:0],example_top/app_rd_data1[15:0],example_top/time_cnt[15:0],example_top/app_addr_begin[28:0],example_top/app_rd_data4[15:0],example_top/app_rd_data6[15:0],example_top/bit_count[7:0],example_top/Write_Fifo_rusdw_o[7:0],example_top/Total_area_reg[15:0],example_top/WaveState[1:0],example_top/ddr3_wr_data[127:0],example_top/app_rd_data[127:0],example_top/ii[15:0],example_top/state[3:0],example_top/state1[3:0],example_top/app_rd_data8[15:0],example_top/Write_Fifo_datain[7:0],example_top/app_rd_data_valid,u_ila_0_app_rdy,u_ila_0_clk,example_top/ddr3_allwr_flag,example_top/ddr3_flag,example_top/ddr3_oneperiod_flag,example_top/ddr3_onewr_flag,example_top/ddr3read_en,example_top/ddr3write_en,example_top/Extract_en,example_top/FeatureExtraction_flag,u_ila_0_FeatureExtraction_flag_reg_1,example_top/FeatureExtraction_flag_reg_r,init_calib_complete_OBUF,example_top/OnePeriod_flag,u_ila_0_FeatureExtraction_flag_reg,example_top/Period_flag,example_top/ProsessIn,example_top/ProsessIn1,example_top/Read_Fifo_empty,example_top/Read_Fifo_full,example_top/Read_Fifo_in_en1,example_top/Read_Fifo_rden,example_top/Read_Fifo_rst,example_top/Read_Fifo_wren,example_top/Read_Over_flag,example_top/S_FeatureExtraction_flag_neg,example_top/S_FeatureExtraction_flag_reg1,example_top/S_FeatureExtraction_flag_reg2,example_top/SendToArm_begin,example_top/SendToArm_Over,example_top/Write_Fifo_empty,example_top/Write_Fifo_full,example_top/WriteSign
0,0,0,1c82,7,0,0,47696563,00000000,-28,0,0000,06,000,0a,2a,077,00,094,3b4b,002a,5262284609,44,4f,0032,154,00000000,50,3b4b2501,617,c4,404489,00,0,0,0,0,0,0,0,0,0,0,0,0,0,0,0,0,80,162,0,000000,-10385651,7694,7,4e,50,255,00a100a200a300a400a500a600a700a8,00000000000000000000000000000000,004e,0049,004d,00000000000000000000000000000000,004b,1b4b2b10,0000,004f,0,1b4b2b10,004c,004a,53,00,7694,1,00000000000000000000000000000000,00480049004a004b004c004d004e004f,0000,4,0,0048,53,1,1,0,1,0,0,0,0,0,1,0,0,0,1,0,0,0,1,0,0,0,1,1,0,0,0,0,0,0,0,1,0,1,0
1,1,0,1c84,0,0,0,47696563,00000000,-28,0,0000,06,000,0a,2a,077,01,094,3b4b,0081,5262284609,44,4f,0032,154,00000000,51,3b4b2502,616,c4,404489,00,0,0,0,0,0,0,0,0,0,0,0,0,0,0,0,0,80,129,0,000000,-10385651,7694,7,4e,50,255,00a100a200a300a400a500a600a700a8,00000000000000000000000000000000,004e,0049,004d,00000000000000000000000000000000,004b,1b4b2b10,0000,004f,0,1b4b2b10,004c,004a,54,00,7694,1,00000000000000000000000000000000,00480049004a004b004c004d004e004f,0000,4,0,0048,54,1,1,1,1,0,0,0,0,0,1,0,0,0,1,0,0,0,1,0,0,0,1,1,0,0,0,0,0,0,0,1,0,1,0
2,2,0,1c87,1,0,0,47696563,00000000,-28,0,0000,06,000,0a,2a,077,02,094,3b4b,0080,5262284609,44,4f,0032,154,00000000,52,3b4b2503,615,c4,404489,00,0,0,0,0,0,0,0,0,0,0,0,0,0,0,0,0,80,130,0,000000,-10385651,7694,7,4e,50,255,00a100a200a300a400a500a600a700a8,00000000000000000000000000000000,004e,0049,004d,00000000000000000000000000000000,004b,1b4b2b10,0000,004f,0,1b4b2b10,004c,004a,55,00,7694,1,00000000000000000000000000000000,00480049004a004b004c004d004e004f,0000,4,0,0048,55,1,1,0,1,0,0,0,0,0,1,0,0,0,1,0,0,0,1,0,0,0,1,1,0,0,0,0,0,0,0,1,0,1,0
3,3,0,1c87,2,0,0,47696563,00000000,-28,0,0000,06,000,0a,2a,077,03,094,3b4b,0082,5262284609,44,4f,0032,154,00000000,53,3b4b2504,614,c4,404489,00,0,0,0,0,0,0,0,0,0,0,0,0,0,0,0,0,80,131,0,000000,-10385651,7694,7,4e,50,255,00a100a200a300a400a500a600a700a8,00000000000000000000000000000000,004e,0049,004d,00000000000000000000000000000000,004b,1b4b2b10,0000,004f,0,1b4b2b10,004c,004a,56,00,7694,1,00000000000000000000000000000000,00480049004a004b004c004d004e004f,0000,4,0,0048,56,1,1,1,1,0,0,0,0,0,1,0,0,0,1,0,0,0,1,0,0,0,1,1,0,0,0,0,0,0,0,1,0,1,0
4,4,0,1c80,4,0,0,47696563,00000000,-28,0,0000,06,000,0a,2a,077,04,094,3b4b,0086,5262284609,44,4f,0032,154,00000000,54,3b4b2505,613,c4,404489,00,0,0,0,0,0,0,0,0,0,0,0,0,0,0,0,0,80,134,0,000000,-10385651,7694,7,4e,50,255,00a100a200a300a400a500a600a700a8,00000000000000000000000000000000,004e,0049,004d,00000000000000000000000000000000,004b,1b4b2b10,0000,004f,0,1b4b2b10,004c,004a,58,00,7694,1,00000000000000000000000000000000,00480049004a004b004c004d004e004f,0000,4,0,0048,57,1,1,0,1,0,0,0,0,0,1,0,0,0,1,0,0,0,1,0,0,0,1,1,0,0,0,0,0,0,0,1,0,1,0
5,5,0,1c8b,5,0,0,47696563,00000000,-28,0,0000,06,000,0a,2a,077,05,094,3b4b,0085,5262284609,44,4f,0032,154,00000000,55,3b4b2506,612,c3,404489,00,0,0,0,0,0,0,0,0,0,0,0,0,0,0,0,0,80,133,0,000000,-10385651,7694,7,4e,50,255,00a100a200a300a400a500a600a700a8,00000000000000000000000000000000,004e,0049,004d,00000000000000000000000000000000,004b,1b4b2b10,0000,004f,0,1b4b2b10,004c,004a,59,00,7694,1,00000000000000000000000000000000,00480049004a004b004c004d004e004f,0000,4,0,0048,59,1,1,1,1,0,0,0,0,0,1,0,0,0,1,0,0,0,1,0,0,0,1,1,0,0,0,0,0,0,0,1,0,1,0
6,6,0,1c83,6,0,0,47696563,00000000,-28,0,0000,06,000,0a,2a,077,06,094,3b4b,0084,5262284609,44,4f,0032,154,00000000,56,3b4b2507,611,c3,404489,00,0,0,0,0,0,0,0,0,0,0,0,0,0,0,0,0,80,134,0,000000,-10385651,7694,7,4e,50,255,00a100a200a300a400a500a600a700a8,00000000000000000000000000000000,004e,0049,004d,00000000000000000000000000000000,004b,1b4b2b10,0000,004f,0,1b4b2b10,004c,004a,5a,00,7694,1,00000000000000000000000000000000,00480049004a004b004c004d004e004f,0000,4,0,0048,5a,1,1,0,1,0,0,0,0,0,1,0,0,0,1,0,0,0,1,0,0,0,1,1,0,0,0,0,0,0,0,1,0,1,0
7,7,0,1c84,7,0,0,47696563,00000000,-28,0,0000,06,000,0a,2a,077,07,094,3b4b,0086,5262284609,44,4f,0032,154,00000000,57,3b4b2508,610,c3,404489,00,0,0,0,0,0,0,0,0,0,0,0,0,0,0,0,0,80,135,0,000000,-10385651,7694,7,4e,50,255,00a100a200a300a400a500a600a700a8,00000000000000000000000000000000,004e,0049,004d,00000000000000000000000000000000,004b,1b4b2b10,0000,004f,0,1b4b2b10,004c,004a,5b,00,7694,1,00000000000000000000000000000000,00480049004a004b004c004d004e004f,0000,4,0,0048,5b,1,1,1,1,0,0,0,0,0,1,0,0,0,1,0,0,0,1,0,0,0,1,1,0,0,0,0,0,0,0,1,0,1,0
8,8,0,1c87,1,0,0,47696563,00000000,-28,0,0000,06,000,0a,2a,077,08,094,3b4b,0082,5262284609,44,4f,0032,154,00000000,58,3b4b2509,60f,c3,404489,00,0,0,0,0,0,0,0,0,0,0,0,0,0,0,0,0,80,138,0,000000,-10385651,7694,7,4e,50,255,00a100a200a300a400a500a600a700a8,00000000000000000000000000000000,004e,0049,004d,00000000000000000000000000000000,004b,1b4b2b10,0000,004f,0,1b4b2b10,004c,004a,5d,00,7694,1,00000000000000000000000000000000,00480049004a004b004c004d004e004f,0000,4,0,0048,5d,1,1,0,1,0,0,0,0,0,1,0,0,0,1,0,0,0,1,0,0,0,1,1,0,0,0,0,0,0,0,1,0,1,0
9,9,0,1c87,2,0,0,47696563,00000000,-28,0,0000,06,000,0a,2a,077,09,094,3b4b,0089,5262284609,44,4f,0032,154,00000000,59,3b4b250a,60e,c3,404489,00,0,0,0,0,0,0,0,0,0,0,0,0,0,0,0,0,80,137,0,000000,-10385651,7694,7,4e,50,255,00a100a200a300a400a500a600a700a8,00000000000000000000000000000000,004e,0049,004d,00000000000000000000000000000000,004b,1b4b2b10,0000,004f,0,1b4b2b10,004c,004a,5e,00,7694,1,00000000000000000000000000000000,00480049004a004b004c004d004e004f,0000,4,0,0048,5e,1,1,1,1,0,0,0,0,0,1,0,0,0,1,0,0,0,1,0,0,0,1,1,0,0,0,0,0,0,0,1,0,1,0
10,10,0,1c80,3,0,0,47696563,00000000,-28,0,0000,06,000,0a,2a,077,0a,094,3b4b,0088,5262284609,44,4f,0032,154,00000000,60,3b4b250b,60d,c3,404489,00,0,0,0,0,0,0,0,0,0,0,0,0,0,0,0,0,80,138,0,000000,-10385651,7694,7,4e,50,255,00a100a200a300a400a500a600a700a8,00000000000000000000000000000000,004e,0049,004d,00000000000000000000000000000000,004b,1b4b2b10,0000,004f,0,1b4b2b10,004c,004a,5f,00,7694,1,00000000000000000000000000000000,00480049004a004b004c004d004e004f,0000,4,0,0048,5f,1,1,0,1,0,0,0,0,0,1,0,0,0,1,0,0,0,1,0,0,0,1,1,0,0,0,0,0,0,0,1,0,1,0
11,11,0,1c82,4,0,0,47696563,00000000,-28,0,0000,06,000,0a,2a,077,0b,094,3b4b,008a,5262284609,44,4f,0032,154,00000000,61,3b4b250c,60c,c3,404489,00,0,0,0,0,0,0,0,0,0,0,0,0,0,0,0,0,80,139,0,000000,-10385651,7694,7,4e,50,255,00a100a200a300a400a500a600a700a8,00000000000000000000000000000000,004e,0049,004d,00000000000000000000000000000000,004b,1b4b2b10,0000,004f,0,1b4b2b10,004c,004a,60,00,7694,1,00000000000000000000000000000000,00480049004a004b004c004d004e004f,0000,4,0,0048,60,1,1,1,1,0,0,0,0,0,1,0,0,0,1,0,0,0,1,0,0,0,1,1,0,0,0,0,0,0,0,1,0,1,0
12,12,0,1c81,6,0,0,47696563,00000000,-28,0,0000,06,000,0a,2a,077,0c,094,3b4b,008e,5262284609,44,4f,0032,154,00000000,62,3b4b250d,60b,c3,404489,00,0,0,0,0,0,0,0,0,0,0,0,0,0,0,0,0,80,142,0,000000,-10385651,7694,7,4e,50,255,00a100a200a300a400a500a600a700a8,00000000000000000000000000000000,004e,0049,004d,00000000000000000000000000000000,004b,1b4b2b10,0000,004f,0,1b4b2b10,004c,004a,62,00,7694,1,00000000000000000000000000000000,00480049004a004b004c004d004e004f,0000,4,0,0048,61,1,1,0,1,0,0,0,0,0,1,0,0,0,1,0,0,0,1,0,0,0,1,1,0,0,0,0,0,0,0,1,0,1,0
13,13,0,1c85,7,0,0,47696563,00000000,-28,0,0000,06,000,0a,2a,077,0d,094,3b4b,008d,5262284609,44,4f,0032,154,00000000,63,3b4b250e,60a,c2,404489,00,0,0,0,0,0,0,0,0,0,0,0,0,0,0,0,0,80,141,0,000000,-10385651,7694,7,4e,50,255,00a100a200a300a400a500a600a700a8,00000000000000000000000000000000,004e,0049,004d,00000000000000000000000000000000,004b,1b4b2b10,0000,004f,0,1b4b2b10,004c,004a,63,00,7694,1,00000000000000000000000000000000,00480049004a004b004c004d004e004f,0000,4,0,0048,63,1,1,1,1,0,0,0,0,0,1,0,0,0,1,0,0,0,1,0,0,0,1,1,0,0,0,0,0,0,0,1,0,1,0
14,14,0,1c86,0,0,0,47696563,00000000,-28,0,0000,06,000,0a,2a,077,0e,094,3b4b,008c,5262284609,44,4f,0032,154,00000000,64,3b4b250f,609,c2,404489,00,0,0,0,0,0,0,0,0,0,0,0,0,0,0,0,0,80,142,0,000000,-10385651,7694,7,4e,50,255,00a100a200a300a400a500a600a700a8,00000000000000000000000000000000,004e,0049,004d,00000000000000000000000000000000,004b,1b4b2b10,0000,004f,0,1b4b2b10,004c,004a,64,00,7694,1,00000000000000000000000000000000,00480049004a004b004c004d004e004f,0000,4,0,0048,64,1,1,0,1,0,0,0,0,0,1,0,0,0,1,0,0,0,1,0,0,0,1,1,0,0,0,0,0,0,0,1,0,1,0
15,15,0,1c8d,1,0,0,47696563,00000000,-28,0,0000,06,000,0a,2a,077,0f,094,3b4b,008e,5262284609,44,4f,0032,154,00000000,65,3b4b2510,608,c2,404489,00,0,0,0,0,0,0,0,0,0,0,0,0,0,0,0,0,80,143,0,000000,-10385651,7694,7,4e,50,255,00a100a200a300a400a500a600a700a8,00000000000000000000000000000000,004e,0049,004d,00000000000000000000000000000000,004b,1b4b2b10,0000,004f,0,1b4b2b10,004c,004a,65,00,7694,1,00000000000000000000000000000000,00480049004a004b004c004d004e004f,0000,4,0,0048,65,1,1,1,1,0,0,0,0,0,1,0,0,0,1,0,0,0,1,0,0,0,1,1,0,0,0,0,0,0,0,1,0,1,0
16,16,0,1c81,3,0,0,47696563,00000000,-28,0,0000,06,000,0a,2a,077,10,094,3b4b,009a,5262284609,44,4f,0032,154,00000000,66,3b4b2511,607,c2,404489,00,0,0,0,0,0,0,0,0,0,0,0,0,0,0,0,0,80,146,0,000000,-10385651,7694,7,4e,50,255,00a100a200a300a400a500a600a700a8,00000000000000000000000000000000,004e,0049,004d,00000000000000000000000000000000,004b,1b4b2b10,0000,004f,0,1b4b2b10,004c,004a,67,00,7694,1,00000000000000000000000000000000,00480049004a004b004c004d004e004f,0000,4,0,0048,67,1,1,0,1,0,0,0,0,0,1,0,0,0,1,0,0,0,1,0,0,0,1,1,0,0,0,0,0,0,0,1,0,1,0
17,17,0,1c82,4,0,0,47696563,00000000,-28,0,0000,06,000,0a,2a,077,11,094,3b4b,0091,5262284609,44,4f,0032,154,00000000,67,3b4b2512,606,c2,404489,00,0,0,0,0,0,0,0,0,0,0,0,0,0,0,0,0,80,145,0,000000,-10385651,7694,7,4e,50,255,00a100a200a300a400a500a600a700a8,00000000000000000000000000000000,004e,0049,004d,00000000000000000000000000000000,004b,1b4b2b10,0000,004f,0,1b4b2b10,004c,004a,68,00,7694,1,00000000000000000000000000000000,00480049004a004b004c004d004e004f,0000,4,0,0048,68,1,1,1,1,0,0,0,0,0,1,0,0,0,1,0,0,0,1,0,0,0,1,1,0,0,0,0,0,0,0,1,0,1,0
18,18,0,1c84,5,0,0,47696563,00000000,-28,0,0000,06,000,0a,2a,077,12,094,3b4b,0090,5262284609,44,4f,0032,154,00000000,68,3b4b2513,605,c2,404489,00,0,0,0,0,0,0,0,0,0,0,0,0,0,0,0,0,80,146,0,000000,-10385651,7694,7,4e,50,255,00a100a200a300a400a500a600a700a8,00000000000000000000000000000000,004e,0049,004d,00000000000000000000000000000000,004b,1b4b2b10,0000,004f,0,1b4b2b10,004c,004a,69,00,7694,1,00000000000000000000000000000000,00480049004a004b004c004d004e004f,0000,4,0,0048,69,1,1,0,1,0,0,0,0,0,1,0,0,0,1,0,0,0,1,0,0,0,1,1,0,0,0,0,0,0,0,1,0,1,0
19,19,0,1c85,6,0,0,47696563,00000000,-28,0,0000,06,000,0a,2a,077,13,094,3b4b,0092,5262284609,44,4f,0032,154,00000000,69,3b4b2514,604,c2,404489,00,0,0,0,0,0,0,0,0,0,0,0,0,0,0,0,0,80,147,0,000000,-10385651,7694,7,4e,50,255,00a100a200a300a400a500a600a700a8,00000000000000000000000000000000,004e,0049,004d,00000000000000000000000000000000,004b,1b4b2b10,0000,004f,0,1b4b2b10,004c,004a,6a,00,7694,1,00000000000000000000000000000000,00480049004a004b004c004d004e004f,0000,4,0,0048,6a,1,1,1,1,0,0,0,0,0,1,0,0,0,1,0,0,0,1,0,0,0,1,1,0,0,0,0,0,0,0,1,0,1,0
20,20,0,1c86,0,0,0,47696563,00000000,-28,0,0000,06,000,0a,2a,077,14,094,3b4b,0096,5262284609,44,4f,0032,154,00000000,70,3b4b2515,603,c2,404489,00,0,0,0,0,0,0,0,0,0,0,0,0,0,0,0,0,80,150,0,000000,-10385651,7694,7,4e,50,255,00a100a200a300a400a500a600a700a8,00000000000000000000000000000000,004e,0049,004d,00000000000000000000000000000000,004b,1b4b2b10,0000,004f,0,1b4b2b10,004c,004a,6c,00,7694,1,00000000000000000000000000000000,00480049004a004b004c004d004e004f,0000,4,0,0048,6b,1,1,0,1,0,0,0,0,0,1,0,0,0,1,0,0,0,1,0,0,0,1,1,0,0,0,0,0,0,0,1,0,1,0
21,21,0,1c80,1,0,0,47696563,00000000,-28,0,0000,06,000,0a,2a,077,15,094,3b4b,0095,5262284609,44,4f,0032,154,00000000,71,3b4b2516,602,c1,404489,00,0,0,0,0,0,0,0,0,0,0,0,0,0,0,0,0,80,149,0,000000,-10385651,7694,7,4e,50,255,00a100a200a300a400a500a600a700a8,00000000000000000000000000000000,004e,0049,004d,00000000000000000000000000000000,004b,1b4b2b10,0000,004f,0,1b4b2b10,004c,004a,6d,00,7694,1,00000000000000000000000000000000,00480049004a004b004c004d004e004f,0000,4,0,0048,6d,1,1,1,1,0,0,0,0,0,1,0,0,0,1,0,0,0,1,0,0,0,1,1,0,0,0,0,0,0,0,1,0,1,0
22,22,0,1c83,2,0,0,47696563,00000000,-28,0,0000,06,000,0a,2a,077,16,094,3b4b,0094,5262284609,44,4f,0032,154,00000000,72,3b4b2517,601,c1,404489,00,0,0,0,0,0,0,0,0,0,0,0,0,0,0,0,0,80,150,0,000000,-10385651,7694,7,4e,50,255,00a100a200a300a400a500a600a700a8,00000000000000000000000000000000,004e,0049,004d,00000000000000000000000000000000,004b,1b4b2b10,0000,004f,0,1b4b2b10,004c,004a,6e,00,7694,1,00000000000000000000000000000000,00480049004a004b004c004d004e004f,0000,4,0,0048,6e,1,1,0,1,0,0,0,0,0,1,0,0,0,1,0,0,0,1,0,0,0,1,1,0,0,0,0,0,0,0,1,0,1,0
23,23,0,1c83,3,0,0,47696563,00000000,-28,0,0000,06,000,0a,2a,077,17,094,3b4b,0096,5262284609,44,4f,0032,154,00000000,73,3b4b2518,600,c1,404489,00,0,0,0,0,0,0,0,0,0,0,0,0,0,0,0,0,80,151,0,000000,-10385651,7694,7,4e,50,255,00a100a200a300a400a500a600a700a8,00000000000000000000000000000000,004e,0049,004d,00000000000000000000000000000000,004b,1b4b2b10,0000,004f,0,1b4b2b10,004c,004a,6f,00,7694,1,00000000000000000000000000000000,00480049004a004b004c004d004e004f,0000,4,0,0048,6f,1,1,1,1,0,0,0,0,0,1,0,0,0,1,0,0,0,1,0,0,0,1,1,0,0,0,0,0,0,0,1,0,1,0
24,24,0,1c84,5,0,0,47696563,00000000,-28,0,0000,06,000,0a,2a,077,18,094,3b4b,0092,5262284609,44,4f,0032,154,00000000,74,3b4b2519,5ff,c1,404489,00,0,0,0,0,0,0,0,0,0,0,0,0,0,0,0,0,80,154,0,000000,-10385651,7694,7,4e,50,255,00a100a200a300a400a500a600a700a8,00000000000000000000000000000000,004e,0049,004d,00000000000000000000000000000000,004b,1b4b2b10,0000,004f,0,1b4b2b10,004c,004a,71,00,7694,1,00000000000000000000000000000000,00480049004a004b004c004d004e004f,0000,4,0,0048,71,1,1,0,1,0,0,0,0,0,1,0,0,0,1,0,0,0,1,0,0,0,1,1,0,0,0,0,0,0,0,1,0,1,0
25,25,0,1c87,6,0,0,47696563,00000000,-28,0,0000,06,000,0a,2a,077,19,094,3b4b,0099,5262284609,44,4f,0032,154,00000000,75,3b4b251a,5fe,c1,404489,00,0,0,0,0,0,0,0,0,0,0,0,0,0,0,0,0,80,153,0,000000,-10385651,7694,7,4e,50,255,00a100a200a300a400a500a600a700a8,00000000000000000000000000000000,004e,0049,004d,00000000000000000000000000000000,004b,1b4b2b10,0000,004f,0,1b4b2b10,004c,004a,72,00,7694,1,00000000000000000000000000000000,00480049004a004b004c004d004e004f,0000,4,0,0048,72,1,1,1,1,0,0,0,0,0,1,0,0,0,1,0,0,0,1,0,0,0,1,1,0,0,0,0,0,0,0,1,0,1,0
26,26,0,1c87,7,0,0,47696563,00000000,-28,0,0000,06,000,0a,2a,077,1a,094,3b4b,0098,5262284609,44,4f,0032,154,00000000,76,3b4b251b,5fd,c1,404489,00,0,0,0,0,0,0,0,0,0,0,0,0,0,0,0,0,80,154,0,000000,-10385651,7694,7,4e,50,255,00a100a200a300a400a500a600a700a8,00000000000000000000000000000000,004e,0049,004d,00000000000000000000000000000000,004b,1b4b2b10,0000,004f,0,1b4b2b10,004c,004a,73,00,7694,1,00000000000000000000000000000000,00480049004a004b004c004d004e004f,0000,4,0,0048,73,1,1,0,1,0,0,0,0,0,1,0,0,0,1,0,0,0,1,0,0,0,1,1,0,0,0,0,0,0,0,1,0,1,0
27,27,0,1c80,0,0,0,47696563,00000000,-28,0,0000,06,000,0a,2a,077,1b,094,3b4b,009a,5262284609,44,4f,0032,154,00000000,77,3b4b251c,5fc,c1,404489,00,0,0,0,0,0,0,0,0,0,0,0,0,0,0,0,0,80,155,0,000000,-10385651,7694,7,4e,50,255,00a100a200a300a400a500a600a700a8,00000000000000000000000000000000,004e,0049,004d,00000000000000000000000000000000,004b,1b4b2b10,0000,004f,0,1b4b2b10,004c,004a,74,00,7694,1,00000000000000000000000000000000,00480049004a004b004c004d004e004f,0000,4,0,0048,74,1,1,1,1,0,0,0,0,0,1,0,0,0,1,0,0,0,1,0,0,0,1,1,0,0,0,0,0,0,0,1,0,1,0
28,28,0,1c82,2,0,0,47696563,00000000,-28,0,0000,06,000,0a,2a,077,1c,094,3b4b,009e,5262284609,44,4f,0032,154,00000000,78,3b4b251d,5fb,c1,404489,00,0,0,0,0,0,0,0,0,0,0,0,0,0,0,0,0,80,158,0,000000,-10385651,7694,7,4e,50,255,00a100a200a300a400a500a600a700a8,00000000000000000000000000000000,004e,0049,004d,00000000000000000000000000000000,004b,1b4b2b10,0000,004f,0,1b4b2b10,004c,004a,76,00,7694,1,00000000000000000000000000000000,00480049004a004b004c004d004e004f,0000,4,0,0048,75,1,1,0,1,0,0,0,0,0,1,0,0,0,1,0,0,0,1,0,0,0,1,1,0,0,0,0,0,0,0,1,0,1,0
29,29,0,1c81,3,0,0,47696563,00000000,-28,0,0000,06,000,0a,2a,077,1d,094,3b4b,009d,5262284609,44,4f,0032,154,00000000,79,3b4b251e,5fa,c0,404489,00,0,0,0,0,0,0,0,0,0,0,0,0,0,0,0,0,80,157,0,000000,-10385651,7694,7,4e,50,255,00a100a200a300a400a500a600a700a8,00000000000000000000000000000000,004e,0049,004d,00000000000000000000000000000000,004b,1b4b2b10,0000,004f,0,1b4b2b10,004c,004a,77,00,7694,1,00000000000000000000000000000000,00480049004a004b004c004d004e004f,0000,4,0,0048,77,1,1,1,1,0,0,0,0,0,1,0,0,0,1,0,0,0,1,0,0,0,1,1,0,0,0,0,0,0,0,1,0,1,0
